21:04:22:288  Write: 01 03 00 00 00 02 C4 0B
21:04:22:594  Read: 01 03 04 00 00 00 00 FA 33
21:04:22:745  Write: 01 03 00 02 00 01 25 CA
21:04:23:050  Read: 01 03 02 00 01 79 84
21:04:23:165  Write: 01 03 00 03 00 01 74 0A
21:04:23:468  Read: 01 03 02 25 80 A3 74
21:04:23:577  Write: 01 03 00 04 00 02 85 CA
21:04:23:886  Read: 01 03 04 3F 82 8F 5C 32 06
21:04:23:994  Write: 01 03 00 06 00 02 24 0A
21:04:24:401  Read: 01 03 04 3F 80 00 00 F7 CF
21:04:24:514  Write: 01 03 00 09 00 02 14 09
21:04:24:825  Read: 01 03 04 44 7A 00 00 CF 1A
21:04:24:942  Write: 01 03 00 0B 00 01 F5 C8
21:04:25:350  Read: 01 03 02 00 05 78 47
21:04:25:489  Write: 01 03 00 0D 00 01 15 C9
21:04:25:792  Read: 01 03 02 00 05 78 47
21:04:25:905  Write: 01 03 00 0E 00 02 A5 C8
21:04:26:318  Read: 01 03 04 00 00 00 00 FA 33
21:04:26:428  Write: 01 03 00 10 00 02 C5 CE
21:04:26:736  Read: 01 03 04 43 6E 80 00 EF AA
21:04:26:848  Write: 01 03 00 12 00 02 64 0E
21:04:27:153  Read: 01 03 04 00 00 00 00 FA 33
21:04:27:262  Write: 01 03 00 14 00 02 84 0F
21:04:27:572  Read: 01 03 04 42 47 CC CD CA CB
21:04:27:685  Write: 01 03 00 16 00 02 25 CF
21:04:27:992  Read: 01 03 04 00 00 00 00 FA 33
21:04:28:104  Write: 01 03 00 18 00 02 44 0C
21:04:28:414  Read: 01 03 04 3D CC CC CD A3 35
21:04:28:524  Write: 01 03 00 1A 00 02 E5 CC
21:04:28:833  Read: 01 03 04 00 00 00 00 FA 33
21:04:28:944  Write: 01 03 00 1C 00 02 05 CD
21:04:29:358  Read: 01 03 04 3C 83 12 6F 4B 07
21:04:29:470  Write: 01 03 00 1E 00 02 A4 0D
21:04:29:779  Read: 01 03 04 00 00 00 00 FA 33
21:04:29:892  Write: 01 03 00 20 00 02 C5 C1
21:04:30:398  Read: 01 03 04 3C 83 12 6F 4B 07
21:04:30:509  Write: 01 03 00 22 00 02 64 01
21:04:30:810  Read: 01 03 04 00 00 00 00 FA 33
21:04:30:930  Write: 01 03 00 24 00 02 84
21:04:31:340  Read: 01 03 04 3B C4 9B A6 5D A0
21:04:31:450  Write: 01 03 00 26 00 02 25 C0
21:04:31:757  Read: 01 03 04 00 00 00 00 FA 33
21:04:31:866  Write: 01 03 00 28 00 02 44 03
21:04:32:172  Read: 01 03 04 3B C4 9B A6 5D A0
21:04:32:294  Write: 01 03 00 2A 00 02 E5 C3
21:04:32:599  Read: 01 03 04 00 00 00 00 FA 33
21:04:32:717  Write: 01 03 00 2C 00 02 05 C2
21:04:33:021  Read: 01 03 04 3C 8B 43 96 37 17
21:04:33:138  Write: 01 03 00 2E 00 02 A4 02
21:04:33:442  Read: 01 03 04 00 00 00 00 FA 33
21:04:33:558  Write: 01 03 00 30 00 02 C4 04
21:04:33:868  Read: 01 03 04 3C 8B 43 96 37 17
21:04:33:992  Write: 01 03 00 32 00 02 65 C4
21:04:34:400  Read: 01 03 04 00 00 00 00 FA 33
21:04:34:518  Write: 01 03 00 34 00 02 85 C5
21:04:34:822  Read: 01 03 04 3F 6E 14 7B D8 D9
21:04:34:936  Write: 01 03 00 36 00 02 24 05
21:04:35:352  Read: 01 03 04 00 00 00 00 FA 33
21:04:35:468  Write: 01 03 00 38 00 02 45 C6
21:04:35:774  Read: 01 03 04 3F 6E 14 7B D8 D9
21:04:35:886  Write: 01 03 00 3A 00 02 E4 06
21:04:36:402  Read: 01 03 04 00 00 00 00 FA 33
21:04:36:519  Write: 01 03 00 3C 00 04 84 05
21:04:36:859  Read: 01 03 08 28 21 00 01 01 01 00 00 CA 97
21:04:36:979  Write: 01 03 00 41 00 01 D4 1E
21:04:37:409  Read: 01 03 02 01 99 79 BE
21:04:37:529  Write: 01 03 01 00 00 02 C5 F7
21:04:37:849  Read: 01 03 04 3C A3 D7 0A D9 B6
21:04:37:968  Write: 01 03 01 02 00 02 64 37
21:04:38:429  Read: 01 03 04 00 00 00 00 FA 33
21:04:38:549  Write: 01 03 01 04 00 02 84 36
21:04:38:909  Read: 01 03 04 3C A3 D7 0A D9 B6
21:04:39:029  Write: 01 03 01 06 00 02 25 F6
21:04:39:369  Read: 01 03 04 00 00 00 00 FA 33
21:04:39:489  Write: 01 03 01 08 00 02 44 35
21:04:39:829  Read: 01 03 04 3C A3 D7 0A D9 B6
21:04:39:949  Write: 01 03 01 0A 00 02 E5 F5
21:04:40:409  Read: 01 03 04 00 00 00 00 FA 33
21:04:40:529  Write: 01 03 01 0C 00 02 05 F4
21:04:40:889  Read: 01 03 04 3C A3 D7 0A D9 B6
21:04:41:009  Write: 01 03 01 0E 00 02 A4 34
21:04:41:369  Read: 01 03 04 00 00 00 00 FA 33
21:04:41:509  Write: 01 03 01 10 00 02 C4 32
21:04:41:849  Read: 01 03 04 00 00 00 00 FA 33
21:04:41:969  Write: 01 03 01 12 00 02 65 F2
21:04:42:429  Read: 01 03 04 00 00 00 00 FA 33
21:04:42:549  Write: 01 03 01 14 00 02 85 F3
21:04:42:889  Read: 01 03 04 00 00 00 00 FA 33
21:04:43:009  Write: 01 03 01 16 00 02 24 33
21:04:43:369  Read: 01 03 04 00 00 00 00 FA 33
21:04:43:519  Write: 01 03 01 18 00 02 45 F0
21:04:43:859  Read: 01 03 04 3C 23 D7 0A D8 5E
21:04:43:979  Write: 01 03 01 1A 00 02 E4 30
21:04:44:439  Read: 01 03 04 00 00 00 00 FA 33
21:04:44:559  Write: 01 03 01 1C 00 02 04 31
21:04:44:879  Read: 01 03 04 3C 23 D7 0A D8 5E
21:04:44:998  Write: 01 03 01 1E 00 02 A5 F1
21:04:45:439  Read: 01 03 04 00 00 00 00 FA 33
21:04:45:559  Write: 01 03 01 20 00 02 C4 3D
21:04:45:879  Read: 01 03 04 00 00 00 00 FA 33
21:04:46:019  Write: 01 03 01 22 00 02 65 FD
21:04:46:349  Read: 01 03 04 00 00 00 00 FA 33
21:04:46:469  Write: 01 03 01 24 00 02 85 FC
21:04:46:786  Read: 01 03 04 00 00 00 00 FA 33
21:04:46:912  Write: 01 03 01 26 00 02 24 3C
21:04:47:430  Read: 01 03 04 00 00 00 00 FA 33
21:04:47:561  Write: 01 03 01 28 00 02 45 FF
21:04:47:881  Read: 01 03 04 3C 23 D7 0A D8 5E
21:04:47:997  Write: 01 03 01 2A 00 02 E4 3F
21:04:48:335  Read: 01 03 04 00 00 00 00 FA 33
21:04:48:455  Write: 01 03 01 2C 00 02 04 3E
21:04:48:771  Read: 01 03 04 3C 23 D7 0A D8 5E
21:04:48:887  Write: 01 03 01 2E 00 02 A5 FE
21:04:49:430  Read: 01 03 04 00 00 00 00 FA 33
21:04:49:549  Write: 01 03 01 30 00 02 C5 F8
21:04:49:866  Read: 01 03 04 00 00 00 00 FA 33
21:04:49:982  Write: 01 03 01 32 00 02 64 38
21:04:50:403  Read: 01 03 04 00 00 00 00 FA 33
21:04:50:522  Write: 01 03 01 34 00 02 84 39
21:04:50:851  Read: 01 03 04 00 00 00 00 FA 33
21:04:50:967  Write: 01 03 01 36 00 02 25 F9
21:04:51:396  Read: 01 03 04 00 00 00 00 FA 33
21:04:51:521  Write: 01 03 01 38 00 02 44 3A
21:04:51:849  Read: 01 03 04 00 00 00 00 FA 33
21:04:51:974  Write: 01 03 01 3A 00 02 E5 FA
21:04:52:412  Read: 01 03 04 00 00 00 00 FA 33
21:04:52:537  Write: 01 03 01 3C 00 02 05 FB
21:04:52:865  Read: 01 03 04 3C A3 D7 0A D9 B6
21:04:52:990  Write: 01 03 01 3E 00 02 A4 3B
21:04:53:427  Read: 01 03 04 3C A3 D7 0A D9 B6
21:04:53:552  Write: 01 03 01 40 00 02 C4 23
21:04:53:880  Read: 01 03 04 00 00 00 00 FA 33
21:04:54:005  Write: 01 03 01 42 00 02 65 E3
21:04:54:333  Read: 01 03 04 3C 23 D7 0A D8 5E
21:04:54:458  Write: 01 03 01 44 00 02 85 E2
21:04:54:787  Read: 01 03 04 00 00 00 00 FA 33
21:04:54:912  Write: 01 03 01 46 00 02 24 22
21:04:55:359  Read: 01 03 04 3C 23 D7 0A D8 5E
21:04:55:484  Write: 01 03 01 48 00 02 45 E1
21:04:55:812  Read: 01 03 04 00 00 00 00 FA 33
21:04:55:937  Write: 01 03 01 4A 00 02 E4 21
21:04:56:375  Read: 01 03 04 00 00 00 00 FA 33
21:04:56:515  Write: 01 03 01 4C 00 02 04 20
21:04:56:843  Read: 01 03 04 00 00 00 00 FA 33
21:04:56:968  Write: 01 03 01 4E 00 02 A5 E0
21:04:57:406  Read: 01 03 04 00 00 00 00 FA 33
21:04:57:531  Write: 01 03 01 50 00 02 C5 E6
21:04:57:859  Read: 01 03 04 00 00 00 00 FA 33
21:04:57:999  Write: 01 03 01 52 00 02 64 26
21:04:58:328  Read: 01 03 04 00 00 00 00 FA 33
21:04:58:453  Write: 01 03 01 54 00 02 84 27
21:04:58:781  Read: 01 03 04 00 00 00 00 FA 33
21:04:58:906  Write: 01 03 01 56 00 02 25 E7
21:04:59:343  Read: 01 03 04 00 00 00 00 FA 33
21:04:59:468  Write: 01 03 01 58 00 02 44 24
21:04:59:796  Read: 01 03 04 00 00 00 00 FA 33
21:04:59:921  Write: 01 03 01 5A 00 02 E5 E4
21:05:00:359  Read: 01 03 04 00 00 00 00 FA 33
21:05:00:484  Write: 01 03 01 5C 00 02 05 E5
21:05:00:813  Read: 01 03 04 00 00 00 00 FA 33
21:05:00:938  Write: 01 03 01 5E 00 02 A4 25
21:05:01:370  Read: 01 03 04 00 00 00 00 FA 33
21:05:01:714  Over